T2C4C 000:007.781   SEGGER J-Link V6.70e Log File
T2C4C 000:007.878   DLL Compiled: Apr 17 2020 17:55:05
T2C4C 000:007.883   Logging started @ 2021-11-05 10:10
T2C4C 000:007.889 JLINK_SetWarnOutHandler(...)
T2C4C 000:007.894 - 0.007ms
T2C4C 000:007.902 JLINK_OpenEx(...)
T2C4C 000:009.419   Firmware: J-Link V9 compiled Dec 13 2019 11:14:50
T2C4C 000:009.588   Decompressing FW timestamp took 139 us
T2C4C 000:017.082   Hardware: V9.40
T2C4C 000:017.106   S/N: 59412408
T2C4C 000:017.113   OEM: SEGGER
T2C4C 000:017.119   Feature(s): RDI, GDB, FlashDL, FlashBP, JFlash
T2C4C 000:018.746   TELNET listener socket opened on port 19021
T2C4C 000:018.885   WEBSRV Starting webserver
T2C4C 000:018.998   WEBSRV Webserver running on local port 19080
T2C4C 000:019.006 - 11.106ms returns "O.K."
T2C4C 000:019.025 JLINK_GetEmuCaps()
T2C4C 000:019.030 - 0.007ms returns 0xB9FF7BBF
T2C4C 000:019.039 JLINK_TIF_GetAvailable(...)
T2C4C 000:019.266 - 0.232ms
T2C4C 000:019.275 JLINK_SetErrorOutHandler(...)
T2C4C 000:019.279 - 0.006ms
T2C4C 000:019.293 JLINK_ExecCommand("ProjectFile = "E:\00_Project _design\04-getway\01soft\gateway_iap_1105-2\user_app\gateway\MDK\JLinkSettings.ini"", ...). 
T2C4C 000:030.003   Device "CORTEX-M4" selected.
T2C4C 000:030.484 - 11.202ms returns 0x00
T2C4C 000:032.753 JLINK_ExecCommand("Device = HC32F460PETB", ...). 
T2C4C 000:036.097   Device "CORTEX-M4" selected.
T2C4C 000:036.554 - 3.788ms returns 0x00
T2C4C 000:036.566 JLINK_ExecCommand("DisableConnectionTimeout", ...). 
T2C4C 000:036.575 - 0.005ms returns 0x01
T2C4C 000:036.580 JLINK_GetHardwareVersion()
T2C4C 000:036.585 - 0.006ms returns 0x16F30
T2C4C 000:036.590 JLINK_GetDLLVersion()  returns 67005
T2C4C 000:036.600 JLINK_GetFirmwareString(...)
T2C4C 000:036.604 - 0.006ms
T2C4C 000:044.863 JLINK_GetDLLVersion()  returns 67005
T2C4C 000:044.878 JLINK_GetCompileDateTime()
T2C4C 000:044.882 - 0.006ms
T2C4C 000:049.277 JLINK_GetFirmwareString(...)
T2C4C 000:049.290 - 0.015ms
T2C4C 000:054.406 JLINK_GetHardwareVersion()
T2C4C 000:054.421 - 0.017ms returns 0x16F30
T2C4C 000:086.154 JLINK_TIF_Select(JLINKARM_TIF_SWD)
T2C4C 000:086.780 - 0.633ms returns 0x00
T2C4C 000:086.806 JLINK_SetSpeed(5000)
T2C4C 000:086.939 - 0.137ms
T2C4C 000:086.948 JLINK_GetId()
T2C4C 000:090.135   Found SW-DP with ID 0x2BA01477
T2C4C 000:092.198   Old FW that does not support reading DPIDR via DAP jobs
T2C4C 000:095.252   Unknown DP version. Assuming DPv0
T2C4C 000:099.645   Scanning AP map to find all available APs
T2C4C 000:102.998   AP[1]: Stopped AP scan as end of AP map has been reached
T2C4C 000:105.560   AP[0]: AHB-AP (IDR: 0x24770011)
T2C4C 000:107.983   Iterating through AP map to find AHB-AP to use
T2C4C 000:111.480   AP[0]: Core found
T2C4C 000:116.306   AP[0]: AHB-AP ROM base: 0xE00FF000
T2C4C 000:119.545   CPUID register: 0x410FC241. Implementer code: 0x41 (ARM)
T2C4C 000:121.956   Found Cortex-M4 r0p1, Little endian.
T2C4C 000:223.249    -- Max. mem block: 0x00010DF0
T2C4C 000:223.281   CPU_ReadMem(4 bytes @ 0xE000EDF0)
T2C4C 000:223.886   CPU_WriteMem(4 bytes @ 0xE000EDF0)
T2C4C 000:224.297   CPU_ReadMem(4 bytes @ 0xE0002000)
T2C4C 000:228.575   FPUnit: 6 code (BP) slots and 2 literal slots
T2C4C 000:228.591   CPU_ReadMem(4 bytes @ 0xE000EDFC)
T2C4C 000:228.986   CPU_WriteMem(4 bytes @ 0xE000EDFC)
T2C4C 000:229.308   CPU_ReadMem(4 bytes @ 0xE0001000)
T2C4C 000:229.611   CPU_WriteMem(4 bytes @ 0xE0001000)
T2C4C 000:229.978   CPU_ReadMem(4 bytes @ 0xE000ED88)
T2C4C 000:230.266   CPU_WriteMem(4 bytes @ 0xE000ED88)
T2C4C 000:230.594   CPU_ReadMem(4 bytes @ 0xE000ED88)
T2C4C 000:230.980   CPU_WriteMem(4 bytes @ 0xE000ED88)
T2C4C 000:233.840   CoreSight components:
T2C4C 000:236.444   ROMTbl[0] @ E00FF000
T2C4C 000:236.458   CPU_ReadMem(64 bytes @ 0xE00FF000)
T2C4C 000:237.116   CPU_ReadMem(32 bytes @ 0xE000EFE0)
T2C4C 000:240.830   ROMTbl[0][0]: E000E000, CID: B105E00D, PID: 000BB00C SCS-M7
T2C4C 000:240.844   CPU_ReadMem(32 bytes @ 0xE0001FE0)
T2C4C 000:243.860   ROMTbl[0][1]: E0001000, CID: B105E00D, PID: 003BB002 DWT
T2C4C 000:243.911   CPU_ReadMem(32 bytes @ 0xE0002FE0)
T2C4C 000:246.891   ROMTbl[0][2]: E0002000, CID: B105E00D, PID: 002BB003 FPB
T2C4C 000:246.905   CPU_ReadMem(32 bytes @ 0xE0000FE0)
T2C4C 000:249.865   ROMTbl[0][3]: E0000000, CID: B105E00D, PID: 003BB001 ITM
T2C4C 000:249.879   CPU_ReadMem(32 bytes @ 0xE0040FE0)
T2C4C 000:253.685   ROMTbl[0][4]: E0040000, CID: B105900D, PID: 000BB9A1 TPIU
T2C4C 000:254.023 - 167.081ms   returns 0x2BA01477
T2C4C 000:254.040 JLINK_GetDLLVersion()  returns 67005
T2C4C 000:254.045 JLINK_CORE_GetFound()
T2C4C 000:254.049 - 0.006ms returns 0xE0000FF
T2C4C 000:254.055 JLINK_GetDebugInfo(0x100 = JLINKARM_ROM_TABLE_ADDR_INDEX)
T2C4C 000:254.064   Value=0xE00FF000
T2C4C 000:254.070 - 0.016ms returns 0x00
T2C4C 000:256.947 JLINK_GetDebugInfo(0x100 = JLINKARM_ROM_TABLE_ADDR_INDEX)
T2C4C 000:256.959   Value=0xE00FF000
T2C4C 000:256.965 - 0.020ms returns 0x00
T2C4C 000:256.970 JLINK_GetDebugInfo(0x101 = JLINKARM_DEBUG_INFO_ETM_ADDR_INDEX)
T2C4C 000:256.975   Value=0x00000000
T2C4C 000:256.980 - 0.012ms returns 0x00
T2C4C 000:256.996   JLINK_ReadMemEx(0xE0041FF0, 0x0010 Bytes, ..., Flags = 0x02000004)
T2C4C 000:257.036   CPU_ReadMem(16 bytes @ 0xE0041FF0)
T2C4C 000:257.442   Data:  00 00 00 00 00 00 00 00 00 00 00 00 00 00 00 00
T2C4C 000:257.455 - 0.465ms returns 0x10
T2C4C 000:257.463 JLINK_GetDebugInfo(0x102 = JLINKARM_DEBUG_INFO_MTB_ADDR_INDEX)
T2C4C 000:257.467   Value=0x00000000
T2C4C 000:257.473 - 0.012ms returns 0x00
T2C4C 000:257.478 JLINK_GetDebugInfo(0x103 = JLINKARM_DEBUG_INFO_TPIU_ADDR_INDEX)
T2C4C 000:257.482   Value=0xE0040000
T2C4C 000:257.488 - 0.012ms returns 0x00
T2C4C 000:257.493 JLINK_GetDebugInfo(0x104 = JLINKARM_DEBUG_INFO_ITM_ADDR_INDEX)
T2C4C 000:257.497   Value=0xE0000000
T2C4C 000:257.503 - 0.011ms returns 0x00
T2C4C 000:257.507 JLINK_GetDebugInfo(0x105 = JLINKARM_DEBUG_INFO_DWT_ADDR_INDEX)
T2C4C 000:257.511   Value=0xE0001000
T2C4C 000:257.517 - 0.011ms returns 0x00
T2C4C 000:257.522 JLINK_GetDebugInfo(0x106 = JLINKARM_DEBUG_INFO_FPB_ADDR_INDEX)
T2C4C 000:257.526   Value=0xE0002000
T2C4C 000:257.532 - 0.011ms returns 0x00
T2C4C 000:257.536 JLINK_GetDebugInfo(0x107 = JLINKARM_DEBUG_INFO_NVIC_ADDR_INDEX)
T2C4C 000:257.541   Value=0xE000E000
T2C4C 000:257.546 - 0.011ms returns 0x00
T2C4C 000:257.551 JLINK_GetDebugInfo(0x10C = JLINKARM_DEBUG_INFO_DBG_ADDR_INDEX)
T2C4C 000:257.555   Value=0xE000EDF0
T2C4C 000:257.561 - 0.011ms returns 0x00
T2C4C 000:257.565 JLINK_GetDebugInfo(0x01 = Unknown)
T2C4C 000:257.573   Value=0x00000001
T2C4C 000:257.578 - 0.015ms returns 0x00
T2C4C 000:257.586 JLINK_ReadMemU32(0xE000ED00, 0x0001 Items, ...)
T2C4C 000:257.601   CPU_ReadMem(4 bytes @ 0xE000ED00)
T2C4C 000:258.008   Data:  41 C2 0F 41
T2C4C 000:258.026    - CPUID
T2C4C 000:258.032 - 0.448ms returns 1
T2C4C 000:258.039 JLINK_GetDebugInfo(0x10F = JLINKARM_DEBUG_INFO_HAS_CORTEX_M_SECURITY_EXT_INDEX)
T2C4C 000:258.044   Value=0x00000000
T2C4C 000:258.050 - 0.012ms returns 0x00
T2C4C 000:258.057 JLINK_SetResetType(JLINKARM_CM3_RESET_TYPE_NORMAL)
T2C4C 000:258.061 - 0.006ms returns JLINKARM_CM3_RESET_TYPE_NORMAL
T2C4C 000:258.066 JLINK_Reset()
T2C4C 000:258.089   CPU is running
T2C4C 000:258.097   CPU_WriteMem(4 bytes @ 0xE000EDF0)
T2C4C 000:258.431   CPU is running
T2C4C 000:258.443   CPU_WriteMem(4 bytes @ 0xE000EDFC)
T2C4C 000:261.302   Reset: Halt core after reset via DEMCR.VC_CORERESET.
T2C4C 000:264.718   Reset: Reset device via AIRCR.SYSRESETREQ.
T2C4C 000:264.732   CPU is running
T2C4C 000:264.740   CPU_WriteMem(4 bytes @ 0xE000ED0C)
T2C4C 000:318.017   CPU_ReadMem(4 bytes @ 0xE000EDF0)
T2C4C 000:318.421   CPU_ReadMem(4 bytes @ 0xE000EDF0)
T2C4C 000:318.830   CPU is running
T2C4C 000:318.846   CPU_WriteMem(4 bytes @ 0xE000EDF0)
T2C4C 000:319.234   CPU is running
T2C4C 000:319.246   CPU_WriteMem(4 bytes @ 0xE000EDFC)
T2C4C 000:325.379   CPU_ReadMem(4 bytes @ 0xE000EDF0)
T2C4C 000:328.139   CPU_WriteMem(4 bytes @ 0xE0002000)
T2C4C 000:328.552   CPU_ReadMem(4 bytes @ 0xE000EDFC)
T2C4C 000:329.008   CPU_ReadMem(4 bytes @ 0xE0001000)
T2C4C 000:329.402 - 71.342ms
T2C4C 000:329.417 JLINK_Halt()
T2C4C 000:329.422 - 0.006ms returns 0x00
T2C4C 000:329.427 JLINK_ReadMemU32(0xE000EDF0, 0x0001 Items, ...)
T2C4C 000:329.436   CPU_ReadMem(4 bytes @ 0xE000EDF0)
T2C4C 000:329.839   Data:  03 00 03 00
T2C4C 000:329.850    - DHCSR
T2C4C 000:329.856 - 0.430ms returns 1
T2C4C 000:329.864 JLINK_WriteU32(0xE000EDF0, 0xA05F0003)
T2C4C 000:329.869    - DHCSR
T2C4C 000:329.880   CPU_WriteMem(4 bytes @ 0xE000EDF0)
T2C4C 000:330.249 - 0.390ms returns 0
T2C4C 000:330.261 JLINK_WriteU32(0xE000EDFC, 0x01000000)
T2C4C 000:330.267    - DEMCR
T2C4C 000:330.277   CPU_WriteMem(4 bytes @ 0xE000EDFC)
T2C4C 000:330.623 - 0.368ms returns 0
T2C4C 000:342.488 JLINK_GetHWStatus(...)
T2C4C 000:342.848 - 0.367ms returns 0x00
T2C4C 000:349.975 JLINK_GetNumBPUnits(Type = 0xFFFFFF00)
T2C4C 000:349.986 - 0.013ms returns 0x06
T2C4C 000:349.992 JLINK_GetNumBPUnits(Type = 0xF0)
T2C4C 000:349.996 - 0.006ms returns 0x2000
T2C4C 000:350.001 JLINK_GetNumWPUnits()
T2C4C 000:350.005 - 0.006ms returns 0x04
T2C4C 000:359.551 JLINK_GetSpeed()
T2C4C 000:359.567 - 0.018ms returns 0xFA0
T2C4C 000:366.488 JLINK_ReadMemU32(0xE000E004, 0x0001 Items, ...)
T2C4C 000:366.513   CPU_ReadMem(4 bytes @ 0xE000E004)
T2C4C 000:366.894   Data:  04 00 00 00
T2C4C 000:366.903 - 0.417ms returns 1
T2C4C 000:366.910 JLINK_ReadMemU32(0xE000E004, 0x0001 Items, ...)
T2C4C 000:366.916   CPU_ReadMem(4 bytes @ 0xE000E004)
T2C4C 000:367.244   Data:  04 00 00 00
T2C4C 000:367.253 - 0.345ms returns 1
T2C4C 000:367.260 JLINK_WriteMemEx(0xE0001000, 0x001C Bytes, ..., Flags = 0x02000004)
T2C4C 000:367.265   Data:  01 00 00 00 00 00 00 00 00 00 00 00 00 00 00 00 ...
T2C4C 000:367.603   CPU_WriteMem(28 bytes @ 0xE0001000)
T2C4C 000:368.076 - 0.822ms returns 0x1C
T2C4C 000:368.092 JLINK_Halt()
T2C4C 000:368.097 - 0.007ms returns 0x00
T2C4C 000:368.101 JLINK_IsHalted()
T2C4C 000:368.106 - 0.007ms returns TRUE
T2C4C 000:370.255 JLINK_WriteMem(0x1FFF8000, 0x056C Bytes, ...)
T2C4C 000:370.263   Data:  00 BE 0A E0 0D 78 2D 06 68 40 08 24 40 00 00 D3 ...
T2C4C 000:370.604   CPU_WriteMem(1388 bytes @ 0x1FFF8000)
T2C4C 000:375.872 - 5.623ms returns 0x56C
T2C4C 000:375.902 JLINK_WriteReg(R0, 0x00000000)
T2C4C 000:375.910 - 0.010ms returns 0x00
T2C4C 000:375.915 JLINK_WriteReg(R1, 0x00B71B00)
T2C4C 000:375.920 - 0.006ms returns 0x00
T2C4C 000:375.925 JLINK_WriteReg(R2, 0x00000001)
T2C4C 000:375.929 - 0.006ms returns 0x00
T2C4C 000:375.934 JLINK_WriteReg(R3, 0x00000000)
T2C4C 000:375.939 - 0.006ms returns 0x00
T2C4C 000:375.943 JLINK_WriteReg(R4, 0x00000000)
T2C4C 000:375.948 - 0.006ms returns 0x00
T2C4C 000:375.953 JLINK_WriteReg(R5, 0x00000000)
T2C4C 000:375.957 - 0.006ms returns 0x00
T2C4C 000:375.962 JLINK_WriteReg(R6, 0x00000000)
T2C4C 000:375.966 - 0.006ms returns 0x00
T2C4C 000:375.971 JLINK_WriteReg(R7, 0x00000000)
T2C4C 000:375.975 - 0.006ms returns 0x00
T2C4C 000:375.980 JLINK_WriteReg(R8, 0x00000000)
T2C4C 000:375.984 - 0.006ms returns 0x00
T2C4C 000:375.989 JLINK_WriteReg(R9, 0x1FFF8568)
T2C4C 000:375.994 - 0.006ms returns 0x00
T2C4C 000:375.998 JLINK_WriteReg(R10, 0x00000000)
T2C4C 000:376.003 - 0.006ms returns 0x00
T2C4C 000:376.007 JLINK_WriteReg(R11, 0x00000000)
T2C4C 000:376.012 - 0.006ms returns 0x00
T2C4C 000:376.017 JLINK_WriteReg(R12, 0x00000000)
T2C4C 000:376.021 - 0.006ms returns 0x00
T2C4C 000:376.026 JLINK_WriteReg(R13 (SP), 0x1FFF9000)
T2C4C 000:376.031 - 0.007ms returns 0x00
T2C4C 000:376.036 JLINK_WriteReg(R14, 0x1FFF8001)
T2C4C 000:376.040 - 0.006ms returns 0x00
T2C4C 000:376.045 JLINK_WriteReg(R15 (PC), 0x1FFF8224)
T2C4C 000:376.050 - 0.006ms returns 0x00
T2C4C 000:376.055 JLINK_WriteReg(XPSR, 0x01000000)
T2C4C 000:376.059 - 0.006ms returns 0x00
T2C4C 000:376.064 JLINK_WriteReg(MSP, 0x1FFF9000)
T2C4C 000:376.068 - 0.006ms returns 0x00
T2C4C 000:376.073 JLINK_WriteReg(PSP, 0x1FFF9000)
T2C4C 000:376.077 - 0.006ms returns 0x00
T2C4C 000:376.082 JLINK_WriteReg(CFBP, 0x00000000)
T2C4C 000:376.087 - 0.006ms returns 0x00
T2C4C 000:376.094   JLINK_SetBPEx(Addr = 0x1FFF8000, Type = 0xFFFFFFF2)
T2C4C 000:376.104 - 0.020ms returns 0x00000001
T2C4C 000:376.118 JLINK_Go()
T2C4C 000:376.125   CPU_WriteMem(4 bytes @ 0xE0002000)
T2C4C 000:376.574   CPU_ReadMem(4 bytes @ 0xE0001000)
T2C4C 000:377.012   CPU_WriteMem(4 bytes @ 0xE0002008)
T2C4C 000:377.023   CPU_WriteMem(4 bytes @ 0xE000200C)
T2C4C 000:377.030   CPU_WriteMem(4 bytes @ 0xE0002010)
T2C4C 000:377.036   CPU_WriteMem(4 bytes @ 0xE0002014)
T2C4C 000:377.042   CPU_WriteMem(4 bytes @ 0xE0002018)
T2C4C 000:377.048   CPU_WriteMem(4 bytes @ 0xE000201C)
T2C4C 000:378.233   CPU_WriteMem(4 bytes @ 0xE0001004)
T2C4C 000:380.620 - 4.509ms
T2C4C 000:380.632 JLINK_IsHalted()
T2C4C 000:382.671 - 2.044ms returns TRUE
T2C4C 000:382.682 JLINK_ReadReg(R15 (PC))
T2C4C 000:382.688 - 0.007ms returns 0x1FFF8000
T2C4C 000:382.693 JLINK_ClrBPEx(BPHandle = 0x00000001)
T2C4C 000:382.698 - 0.007ms returns 0x00
T2C4C 000:382.703 JLINK_ReadReg(R0)
T2C4C 000:382.707 - 0.006ms returns 0x00000000
T2C4C 000:384.249 JLINK_WriteReg(R0, 0x0000E000)
T2C4C 000:384.265 - 0.018ms returns 0x00
T2C4C 000:384.271 JLINK_WriteReg(R1, 0x00002000)
T2C4C 000:384.275 - 0.007ms returns 0x00
T2C4C 000:384.280 JLINK_WriteReg(R2, 0x000000FF)
T2C4C 000:384.285 - 0.006ms returns 0x00
T2C4C 000:384.290 JLINK_WriteReg(R3, 0x00000000)
T2C4C 000:384.294 - 0.006ms returns 0x00
T2C4C 000:384.299 JLINK_WriteReg(R4, 0x00000000)
T2C4C 000:384.303 - 0.006ms returns 0x00
T2C4C 000:384.308 JLINK_WriteReg(R5, 0x00000000)
T2C4C 000:384.312 - 0.006ms returns 0x00
T2C4C 000:384.317 JLINK_WriteReg(R6, 0x00000000)
T2C4C 000:384.322 - 0.006ms returns 0x00
T2C4C 000:384.326 JLINK_WriteReg(R7, 0x00000000)
T2C4C 000:384.331 - 0.006ms returns 0x00
T2C4C 000:384.335 JLINK_WriteReg(R8, 0x00000000)
T2C4C 000:384.340 - 0.006ms returns 0x00
T2C4C 000:384.345 JLINK_WriteReg(R9, 0x1FFF8568)
T2C4C 000:384.349 - 0.006ms returns 0x00
T2C4C 000:384.354 JLINK_WriteReg(R10, 0x00000000)
T2C4C 000:384.358 - 0.006ms returns 0x00
T2C4C 000:384.363 JLINK_WriteReg(R11, 0x00000000)
T2C4C 000:384.367 - 0.006ms returns 0x00
T2C4C 000:384.372 JLINK_WriteReg(R12, 0x00000000)
T2C4C 000:384.377 - 0.006ms returns 0x00
T2C4C 000:384.381 JLINK_WriteReg(R13 (SP), 0x1FFF9000)
T2C4C 000:384.386 - 0.007ms returns 0x00
T2C4C 000:384.391 JLINK_WriteReg(R14, 0x1FFF8001)
T2C4C 000:384.396 - 0.006ms returns 0x00
T2C4C 000:384.400 JLINK_WriteReg(R15 (PC), 0x1FFF8020)
T2C4C 000:384.405 - 0.006ms returns 0x00
T2C4C 000:384.410 JLINK_WriteReg(XPSR, 0x01000000)
T2C4C 000:384.414 - 0.006ms returns 0x00
T2C4C 000:384.419 JLINK_WriteReg(MSP, 0x1FFF9000)
T2C4C 000:384.424 - 0.006ms returns 0x00
T2C4C 000:384.428 JLINK_WriteReg(PSP, 0x1FFF9000)
T2C4C 000:384.433 - 0.006ms returns 0x00
T2C4C 000:384.438 JLINK_WriteReg(CFBP, 0x00000000)
T2C4C 000:384.442 - 0.006ms returns 0x00
T2C4C 000:384.447   JLINK_SetBPEx(Addr = 0x1FFF8000, Type = 0xFFFFFFF2)
T2C4C 000:384.455 - 0.009ms returns 0x00000002
T2C4C 000:384.460 JLINK_Go()
T2C4C 000:384.468   CPU_WriteMem(4 bytes @ 0xE0002000)
T2C4C 000:384.777   CPU_ReadMem(4 bytes @ 0xE0001000)
T2C4C 000:386.864 - 2.409ms
T2C4C 000:386.873 JLINK_IsHalted()
T2C4C 000:388.657 - 1.788ms returns TRUE
T2C4C 000:388.666 JLINK_ReadReg(R15 (PC))
T2C4C 000:388.671 - 0.007ms returns 0x1FFF8000
T2C4C 000:388.676 JLINK_ClrBPEx(BPHandle = 0x00000002)
T2C4C 000:388.681 - 0.006ms returns 0x00
T2C4C 000:388.686 JLINK_ReadReg(R0)
T2C4C 000:388.691 - 0.006ms returns 0x00000001
T2C4C 000:388.697 JLINK_WriteReg(R0, 0x0000E000)
T2C4C 000:388.701 - 0.006ms returns 0x00
T2C4C 000:388.706 JLINK_WriteReg(R1, 0x00002000)
T2C4C 000:388.711 - 0.006ms returns 0x00
T2C4C 000:388.715 JLINK_WriteReg(R2, 0x000000FF)
T2C4C 000:388.720 - 0.006ms returns 0x00
T2C4C 000:388.725 JLINK_WriteReg(R3, 0x00000000)
T2C4C 000:388.729 - 0.006ms returns 0x00
T2C4C 000:388.734 JLINK_WriteReg(R4, 0x00000000)
T2C4C 000:388.738 - 0.006ms returns 0x00
T2C4C 000:388.743 JLINK_WriteReg(R5, 0x00000000)
T2C4C 000:388.747 - 0.006ms returns 0x00
T2C4C 000:388.756 JLINK_WriteReg(R6, 0x00000000)
T2C4C 000:388.762 - 0.007ms returns 0x00
T2C4C 000:388.767 JLINK_WriteReg(R7, 0x00000000)
T2C4C 000:388.771 - 0.006ms returns 0x00
T2C4C 000:388.776 JLINK_WriteReg(R8, 0x00000000)
T2C4C 000:388.780 - 0.006ms returns 0x00
T2C4C 000:388.785 JLINK_WriteReg(R9, 0x1FFF8568)
T2C4C 000:388.790 - 0.006ms returns 0x00
T2C4C 000:388.794 JLINK_WriteReg(R10, 0x00000000)
T2C4C 000:388.799 - 0.006ms returns 0x00
T2C4C 000:388.804 JLINK_WriteReg(R11, 0x00000000)
T2C4C 000:388.808 - 0.006ms returns 0x00
T2C4C 000:388.813 JLINK_WriteReg(R12, 0x00000000)
T2C4C 000:388.817 - 0.006ms returns 0x00
T2C4C 000:388.822 JLINK_WriteReg(R13 (SP), 0x1FFF9000)
T2C4C 000:388.827 - 0.006ms returns 0x00
T2C4C 000:388.832 JLINK_WriteReg(R14, 0x1FFF8001)
T2C4C 000:388.836 - 0.006ms returns 0x00
T2C4C 000:388.841 JLINK_WriteReg(R15 (PC), 0x1FFF8194)
T2C4C 000:388.845 - 0.006ms returns 0x00
T2C4C 000:388.850 JLINK_WriteReg(XPSR, 0x01000000)
T2C4C 000:388.855 - 0.006ms returns 0x00
T2C4C 000:388.859 JLINK_WriteReg(MSP, 0x1FFF9000)
T2C4C 000:388.864 - 0.006ms returns 0x00
T2C4C 000:388.869 JLINK_WriteReg(PSP, 0x1FFF9000)
T2C4C 000:388.873 - 0.006ms returns 0x00
T2C4C 000:388.878 JLINK_WriteReg(CFBP, 0x00000000)
T2C4C 000:388.882 - 0.006ms returns 0x00
T2C4C 000:388.887   JLINK_SetBPEx(Addr = 0x1FFF8000, Type = 0xFFFFFFF2)
T2C4C 000:388.894 - 0.009ms returns 0x00000003
T2C4C 000:388.899 JLINK_Go()
T2C4C 000:388.905   CPU_WriteMem(4 bytes @ 0xE0002000)
T2C4C 000:389.230   CPU_ReadMem(4 bytes @ 0xE0001000)
T2C4C 000:391.417 - 2.524ms
T2C4C 000:391.429 JLINK_IsHalted()
T2C4C 000:391.812 - 0.389ms returns FALSE
T2C4C 000:405.175 JLINK_IsHalted()
T2C4C 000:405.661 - 0.493ms returns FALSE
T2C4C 000:407.144 JLINK_IsHalted()
T2C4C 000:407.597 - 0.459ms returns FALSE
T2C4C 000:409.132 JLINK_IsHalted()
T2C4C 000:409.534 - 0.408ms returns FALSE
T2C4C 000:411.112 JLINK_IsHalted()
T2C4C 000:413.351 - 2.246ms returns TRUE
T2C4C 000:413.363 JLINK_ReadReg(R15 (PC))
T2C4C 000:413.369 - 0.008ms returns 0x1FFF8000
T2C4C 000:413.374 JLINK_ClrBPEx(BPHandle = 0x00000003)
T2C4C 000:413.380 - 0.007ms returns 0x00
T2C4C 000:413.385 JLINK_ReadReg(R0)
T2C4C 000:413.389 - 0.006ms returns 0x00000000
T2C4C 000:413.733 JLINK_WriteReg(R0, 0x00010000)
T2C4C 000:413.743 - 0.012ms returns 0x00
T2C4C 000:413.749 JLINK_WriteReg(R1, 0x00002000)
T2C4C 000:413.753 - 0.006ms returns 0x00
T2C4C 000:413.758 JLINK_WriteReg(R2, 0x000000FF)
T2C4C 000:413.763 - 0.006ms returns 0x00
T2C4C 000:413.767 JLINK_WriteReg(R3, 0x00000000)
T2C4C 000:413.772 - 0.006ms returns 0x00
T2C4C 000:413.777 JLINK_WriteReg(R4, 0x00000000)
T2C4C 000:413.781 - 0.006ms returns 0x00
T2C4C 000:413.786 JLINK_WriteReg(R5, 0x00000000)
T2C4C 000:413.790 - 0.006ms returns 0x00
T2C4C 000:413.795 JLINK_WriteReg(R6, 0x00000000)
T2C4C 000:413.799 - 0.006ms returns 0x00
T2C4C 000:413.804 JLINK_WriteReg(R7, 0x00000000)
T2C4C 000:413.808 - 0.006ms returns 0x00
T2C4C 000:413.813 JLINK_WriteReg(R8, 0x00000000)
T2C4C 000:413.818 - 0.006ms returns 0x00
T2C4C 000:413.822 JLINK_WriteReg(R9, 0x1FFF8568)
T2C4C 000:413.827 - 0.006ms returns 0x00
T2C4C 000:413.831 JLINK_WriteReg(R10, 0x00000000)
T2C4C 000:413.836 - 0.006ms returns 0x00
T2C4C 000:413.841 JLINK_WriteReg(R11, 0x00000000)
T2C4C 000:413.845 - 0.006ms returns 0x00
T2C4C 000:413.850 JLINK_WriteReg(R12, 0x00000000)
T2C4C 000:413.854 - 0.006ms returns 0x00
T2C4C 000:413.859 JLINK_WriteReg(R13 (SP), 0x1FFF9000)
T2C4C 000:413.864 - 0.006ms returns 0x00
T2C4C 000:413.869 JLINK_WriteReg(R14, 0x1FFF8001)
T2C4C 000:413.873 - 0.006ms returns 0x00
T2C4C 000:413.878 JLINK_WriteReg(R15 (PC), 0x1FFF8020)
T2C4C 000:413.882 - 0.006ms returns 0x00
T2C4C 000:413.887 JLINK_WriteReg(XPSR, 0x01000000)
T2C4C 000:413.892 - 0.006ms returns 0x00
T2C4C 000:413.896 JLINK_WriteReg(MSP, 0x1FFF9000)
T2C4C 000:413.901 - 0.006ms returns 0x00
T2C4C 000:413.906 JLINK_WriteReg(PSP, 0x1FFF9000)
T2C4C 000:413.910 - 0.006ms returns 0x00
T2C4C 000:413.915 JLINK_WriteReg(CFBP, 0x00000000)
T2C4C 000:413.919 - 0.010ms returns 0x00
T2C4C 000:413.931   JLINK_SetBPEx(Addr = 0x1FFF8000, Type = 0xFFFFFFF2)
T2C4C 000:413.938 - 0.010ms returns 0x00000004
T2C4C 000:413.943 JLINK_Go()
T2C4C 000:413.951   CPU_WriteMem(4 bytes @ 0xE0002000)
T2C4C 000:414.368   CPU_ReadMem(4 bytes @ 0xE0001000)
T2C4C 000:416.849 - 2.914ms
T2C4C 000:416.862 JLINK_IsHalted()
T2C4C 000:418.937 - 2.080ms returns TRUE
T2C4C 000:418.948 JLINK_ReadReg(R15 (PC))
T2C4C 000:418.957 - 0.011ms returns 0x1FFF8000
T2C4C 000:418.963 JLINK_ClrBPEx(BPHandle = 0x00000004)
T2C4C 000:418.968 - 0.007ms returns 0x00
T2C4C 000:418.973 JLINK_ReadReg(R0)
T2C4C 000:418.977 - 0.006ms returns 0x00000001
T2C4C 000:418.984 JLINK_WriteReg(R0, 0x00010000)
T2C4C 000:418.988 - 0.007ms returns 0x00
T2C4C 000:418.993 JLINK_WriteReg(R1, 0x00002000)
T2C4C 000:418.998 - 0.006ms returns 0x00
T2C4C 000:419.003 JLINK_WriteReg(R2, 0x000000FF)
T2C4C 000:419.007 - 0.006ms returns 0x00
T2C4C 000:419.012 JLINK_WriteReg(R3, 0x00000000)
T2C4C 000:419.016 - 0.006ms returns 0x00
T2C4C 000:419.021 JLINK_WriteReg(R4, 0x00000000)
T2C4C 000:419.025 - 0.006ms returns 0x00
T2C4C 000:419.030 JLINK_WriteReg(R5, 0x00000000)
T2C4C 000:419.034 - 0.006ms returns 0x00
T2C4C 000:419.039 JLINK_WriteReg(R6, 0x00000000)
T2C4C 000:419.043 - 0.006ms returns 0x00
T2C4C 000:419.048 JLINK_WriteReg(R7, 0x00000000)
T2C4C 000:419.052 - 0.006ms returns 0x00
T2C4C 000:419.057 JLINK_WriteReg(R8, 0x00000000)
T2C4C 000:419.061 - 0.006ms returns 0x00
T2C4C 000:419.066 JLINK_WriteReg(R9, 0x1FFF8568)
T2C4C 000:419.070 - 0.006ms returns 0x00
T2C4C 000:419.075 JLINK_WriteReg(R10, 0x00000000)
T2C4C 000:419.079 - 0.006ms returns 0x00
T2C4C 000:419.084 JLINK_WriteReg(R11, 0x00000000)
T2C4C 000:419.088 - 0.006ms returns 0x00
T2C4C 000:419.093 JLINK_WriteReg(R12, 0x00000000)
T2C4C 000:419.097 - 0.006ms returns 0x00
T2C4C 000:419.102 JLINK_WriteReg(R13 (SP), 0x1FFF9000)
T2C4C 000:419.107 - 0.006ms returns 0x00
T2C4C 000:419.112 JLINK_WriteReg(R14, 0x1FFF8001)
T2C4C 000:419.116 - 0.006ms returns 0x00
T2C4C 000:419.121 JLINK_WriteReg(R15 (PC), 0x1FFF8194)
T2C4C 000:419.125 - 0.006ms returns 0x00
T2C4C 000:419.130 JLINK_WriteReg(XPSR, 0x01000000)
T2C4C 000:419.134 - 0.006ms returns 0x00
T2C4C 000:419.139 JLINK_WriteReg(MSP, 0x1FFF9000)
T2C4C 000:419.143 - 0.006ms returns 0x00
T2C4C 000:419.148 JLINK_WriteReg(PSP, 0x1FFF9000)
T2C4C 000:419.152 - 0.006ms returns 0x00
T2C4C 000:419.157 JLINK_WriteReg(CFBP, 0x00000000)
T2C4C 000:419.161 - 0.006ms returns 0x00
T2C4C 000:419.167   JLINK_SetBPEx(Addr = 0x1FFF8000, Type = 0xFFFFFFF2)
T2C4C 000:419.174 - 0.009ms returns 0x00000005
T2C4C 000:419.178 JLINK_Go()
T2C4C 000:419.186   CPU_WriteMem(4 bytes @ 0xE0002000)
T2C4C 000:419.478   CPU_ReadMem(4 bytes @ 0xE0001000)
T2C4C 000:421.702 - 2.530ms
T2C4C 000:421.714 JLINK_IsHalted()
T2C4C 000:422.034 - 0.326ms returns FALSE
T2C4C 000:424.062 JLINK_IsHalted()
T2C4C 000:424.354 - 0.297ms returns FALSE
T2C4C 000:429.084 JLINK_IsHalted()
T2C4C 000:429.751 - 0.699ms returns FALSE
T2C4C 000:431.080 JLINK_IsHalted()
T2C4C 000:431.683 - 0.635ms returns FALSE
T2C4C 000:433.043 JLINK_IsHalted()
T2C4C 000:433.646 - 0.636ms returns FALSE
T2C4C 000:435.045 JLINK_IsHalted()
T2C4C 000:435.754 - 0.742ms returns FALSE
T2C4C 000:437.032 JLINK_IsHalted()
T2C4C 000:437.712 - 0.712ms returns FALSE
T2C4C 000:439.240 JLINK_IsHalted()
T2C4C 000:439.934 - 0.726ms returns FALSE
T2C4C 000:442.050 JLINK_IsHalted()
T2C4C 000:444.698 - 2.681ms returns TRUE
T2C4C 000:444.754 JLINK_ReadReg(R15 (PC))
T2C4C 000:444.783 - 0.040ms returns 0x1FFF8000
T2C4C 000:444.809 JLINK_ClrBPEx(BPHandle = 0x00000005)
T2C4C 000:444.832 - 0.033ms returns 0x00
T2C4C 000:444.857 JLINK_ReadReg(R0)
T2C4C 000:444.879 - 0.031ms returns 0x00000000
T2C4C 000:447.683 JLINK_WriteReg(R0, 0x00012000)
T2C4C 000:447.695 - 0.014ms returns 0x00
T2C4C 000:447.700 JLINK_WriteReg(R1, 0x00002000)
T2C4C 000:447.705 - 0.006ms returns 0x00
T2C4C 000:447.710 JLINK_WriteReg(R2, 0x000000FF)
T2C4C 000:447.714 - 0.006ms returns 0x00
T2C4C 000:447.719 JLINK_WriteReg(R3, 0x00000000)
T2C4C 000:447.730 - 0.012ms returns 0x00
T2C4C 000:447.735 JLINK_WriteReg(R4, 0x00000000)
T2C4C 000:447.739 - 0.006ms returns 0x00
T2C4C 000:447.744 JLINK_WriteReg(R5, 0x00000000)
T2C4C 000:447.749 - 0.006ms returns 0x00
T2C4C 000:447.753 JLINK_WriteReg(R6, 0x00000000)
T2C4C 000:447.758 - 0.006ms returns 0x00
T2C4C 000:447.763 JLINK_WriteReg(R7, 0x00000000)
T2C4C 000:447.767 - 0.006ms returns 0x00
T2C4C 000:447.772 JLINK_WriteReg(R8, 0x00000000)
T2C4C 000:447.776 - 0.006ms returns 0x00
T2C4C 000:447.781 JLINK_WriteReg(R9, 0x1FFF8568)
T2C4C 000:447.786 - 0.006ms returns 0x00
T2C4C 000:447.790 JLINK_WriteReg(R10, 0x00000000)
T2C4C 000:447.795 - 0.006ms returns 0x00
T2C4C 000:447.800 JLINK_WriteReg(R11, 0x00000000)
T2C4C 000:447.804 - 0.006ms returns 0x00
T2C4C 000:447.809 JLINK_WriteReg(R12, 0x00000000)
T2C4C 000:447.813 - 0.006ms returns 0x00
T2C4C 000:447.818 JLINK_WriteReg(R13 (SP), 0x1FFF9000)
T2C4C 000:447.823 - 0.007ms returns 0x00
T2C4C 000:447.828 JLINK_WriteReg(R14, 0x1FFF8001)
T2C4C 000:447.832 - 0.006ms returns 0x00
T2C4C 000:447.837 JLINK_WriteReg(R15 (PC), 0x1FFF8020)
T2C4C 000:447.842 - 0.006ms returns 0x00
T2C4C 000:447.847 JLINK_WriteReg(XPSR, 0x01000000)
T2C4C 000:447.851 - 0.006ms returns 0x00
T2C4C 000:447.856 JLINK_WriteReg(MSP, 0x1FFF9000)
T2C4C 000:447.860 - 0.006ms returns 0x00
T2C4C 000:447.865 JLINK_WriteReg(PSP, 0x1FFF9000)
T2C4C 000:447.869 - 0.006ms returns 0x00
T2C4C 000:447.874 JLINK_WriteReg(CFBP, 0x00000000)
T2C4C 000:447.880 - 0.007ms returns 0x00
T2C4C 000:447.886   JLINK_SetBPEx(Addr = 0x1FFF8000, Type = 0xFFFFFFF2)
T2C4C 000:447.893 - 0.009ms returns 0x00000006
T2C4C 000:447.898 JLINK_Go()
T2C4C 000:447.906   CPU_WriteMem(4 bytes @ 0xE0002000)
T2C4C 000:448.225   CPU_ReadMem(4 bytes @ 0xE0001000)
T2C4C 000:450.668 - 2.776ms
T2C4C 000:450.678 JLINK_IsHalted()
T2C4C 000:452.759 - 2.085ms returns TRUE
T2C4C 000:452.767 JLINK_ReadReg(R15 (PC))
T2C4C 000:452.773 - 0.007ms returns 0x1FFF8000
T2C4C 000:452.778 JLINK_ClrBPEx(BPHandle = 0x00000006)
T2C4C 000:452.783 - 0.006ms returns 0x00
T2C4C 000:452.788 JLINK_ReadReg(R0)
T2C4C 000:452.792 - 0.006ms returns 0x00000001
T2C4C 000:452.798 JLINK_WriteReg(R0, 0x00012000)
T2C4C 000:452.803 - 0.006ms returns 0x00
T2C4C 000:452.808 JLINK_WriteReg(R1, 0x00002000)
T2C4C 000:452.812 - 0.006ms returns 0x00
T2C4C 000:452.817 JLINK_WriteReg(R2, 0x000000FF)
T2C4C 000:452.821 - 0.006ms returns 0x00
T2C4C 000:452.826 JLINK_WriteReg(R3, 0x00000000)
T2C4C 000:452.830 - 0.006ms returns 0x00
T2C4C 000:452.835 JLINK_WriteReg(R4, 0x00000000)
T2C4C 000:452.839 - 0.006ms returns 0x00
T2C4C 000:452.844 JLINK_WriteReg(R5, 0x00000000)
T2C4C 000:452.849 - 0.006ms returns 0x00
T2C4C 000:452.853 JLINK_WriteReg(R6, 0x00000000)
T2C4C 000:452.858 - 0.006ms returns 0x00
T2C4C 000:452.862 JLINK_WriteReg(R7, 0x00000000)
T2C4C 000:452.868 - 0.007ms returns 0x00
T2C4C 000:452.873 JLINK_WriteReg(R8, 0x00000000)
T2C4C 000:452.877 - 0.006ms returns 0x00
T2C4C 000:452.882 JLINK_WriteReg(R9, 0x1FFF8568)
T2C4C 000:452.886 - 0.006ms returns 0x00
T2C4C 000:452.891 JLINK_WriteReg(R10, 0x00000000)
T2C4C 000:452.896 - 0.006ms returns 0x00
T2C4C 000:452.900 JLINK_WriteReg(R11, 0x00000000)
T2C4C 000:452.905 - 0.006ms returns 0x00
T2C4C 000:452.910 JLINK_WriteReg(R12, 0x00000000)
T2C4C 000:452.914 - 0.006ms returns 0x00
T2C4C 000:452.919 JLINK_WriteReg(R13 (SP), 0x1FFF9000)
T2C4C 000:452.923 - 0.006ms returns 0x00
T2C4C 000:452.928 JLINK_WriteReg(R14, 0x1FFF8001)
T2C4C 000:452.933 - 0.006ms returns 0x00
T2C4C 000:452.937 JLINK_WriteReg(R15 (PC), 0x1FFF8194)
T2C4C 000:452.942 - 0.006ms returns 0x00
T2C4C 000:452.947 JLINK_WriteReg(XPSR, 0x01000000)
T2C4C 000:452.951 - 0.006ms returns 0x00
T2C4C 000:452.956 JLINK_WriteReg(MSP, 0x1FFF9000)
T2C4C 000:452.960 - 0.006ms returns 0x00
T2C4C 000:452.965 JLINK_WriteReg(PSP, 0x1FFF9000)
T2C4C 000:452.969 - 0.006ms returns 0x00
T2C4C 000:452.974 JLINK_WriteReg(CFBP, 0x00000000)
T2C4C 000:452.978 - 0.006ms returns 0x00
T2C4C 000:452.984   JLINK_SetBPEx(Addr = 0x1FFF8000, Type = 0xFFFFFFF2)
T2C4C 000:452.995 - 0.013ms returns 0x00000007
T2C4C 000:453.000 JLINK_Go()
T2C4C 000:453.006   CPU_WriteMem(4 bytes @ 0xE0002000)
T2C4C 000:453.369   CPU_ReadMem(4 bytes @ 0xE0001000)
T2C4C 000:455.670 - 2.675ms
T2C4C 000:455.680 JLINK_IsHalted()
T2C4C 000:455.999 - 0.323ms returns FALSE
T2C4C 000:457.881 JLINK_IsHalted()
T2C4C 000:458.217 - 0.340ms returns FALSE
T2C4C 000:459.956 JLINK_IsHalted()
T2C4C 000:460.295 - 0.342ms returns FALSE
T2C4C 000:461.868 JLINK_IsHalted()
T2C4C 000:462.242 - 0.380ms returns FALSE
T2C4C 000:463.963 JLINK_IsHalted()
T2C4C 000:464.329 - 0.372ms returns FALSE
T2C4C 000:465.941 JLINK_IsHalted()
T2C4C 000:466.362 - 0.427ms returns FALSE
T2C4C 000:467.884 JLINK_IsHalted()
T2C4C 000:468.255 - 0.378ms returns FALSE
T2C4C 000:469.949 JLINK_IsHalted()
T2C4C 000:470.373 - 0.431ms returns FALSE
T2C4C 000:471.867 JLINK_IsHalted()
T2C4C 000:472.143 - 0.282ms returns FALSE
T2C4C 000:473.848 JLINK_IsHalted()
T2C4C 000:475.933 - 2.092ms returns TRUE
T2C4C 000:475.945 JLINK_ReadReg(R15 (PC))
T2C4C 000:475.951 - 0.008ms returns 0x1FFF8000
T2C4C 000:475.957 JLINK_ClrBPEx(BPHandle = 0x00000007)
T2C4C 000:475.962 - 0.007ms returns 0x00
T2C4C 000:475.967 JLINK_ReadReg(R0)
T2C4C 000:475.971 - 0.006ms returns 0x00000000
T2C4C 000:477.540 JLINK_WriteReg(R0, 0x00014000)
T2C4C 000:477.553 - 0.015ms returns 0x00
T2C4C 000:477.558 JLINK_WriteReg(R1, 0x00002000)
T2C4C 000:477.563 - 0.006ms returns 0x00
T2C4C 000:477.568 JLINK_WriteReg(R2, 0x000000FF)
T2C4C 000:477.572 - 0.006ms returns 0x00
T2C4C 000:477.577 JLINK_WriteReg(R3, 0x00000000)
T2C4C 000:477.582 - 0.006ms returns 0x00
T2C4C 000:477.586 JLINK_WriteReg(R4, 0x00000000)
T2C4C 000:477.591 - 0.006ms returns 0x00
T2C4C 000:477.595 JLINK_WriteReg(R5, 0x00000000)
T2C4C 000:477.600 - 0.006ms returns 0x00
T2C4C 000:477.605 JLINK_WriteReg(R6, 0x00000000)
T2C4C 000:477.609 - 0.006ms returns 0x00
T2C4C 000:477.614 JLINK_WriteReg(R7, 0x00000000)
T2C4C 000:477.618 - 0.006ms returns 0x00
T2C4C 000:477.623 JLINK_WriteReg(R8, 0x00000000)
T2C4C 000:477.627 - 0.006ms returns 0x00
T2C4C 000:477.632 JLINK_WriteReg(R9, 0x1FFF8568)
T2C4C 000:477.636 - 0.006ms returns 0x00
T2C4C 000:477.641 JLINK_WriteReg(R10, 0x00000000)
T2C4C 000:477.646 - 0.006ms returns 0x00
T2C4C 000:477.650 JLINK_WriteReg(R11, 0x00000000)
T2C4C 000:477.655 - 0.006ms returns 0x00
T2C4C 000:477.660 JLINK_WriteReg(R12, 0x00000000)
T2C4C 000:477.664 - 0.006ms returns 0x00
T2C4C 000:477.669 JLINK_WriteReg(R13 (SP), 0x1FFF9000)
T2C4C 000:477.674 - 0.007ms returns 0x00
T2C4C 000:477.679 JLINK_WriteReg(R14, 0x1FFF8001)
T2C4C 000:477.683 - 0.006ms returns 0x00
T2C4C 000:477.688 JLINK_WriteReg(R15 (PC), 0x1FFF8020)
T2C4C 000:477.692 - 0.006ms returns 0x00
T2C4C 000:477.697 JLINK_WriteReg(XPSR, 0x01000000)
T2C4C 000:477.702 - 0.006ms returns 0x00
T2C4C 000:477.706 JLINK_WriteReg(MSP, 0x1FFF9000)
T2C4C 000:477.711 - 0.006ms returns 0x00
T2C4C 000:477.715 JLINK_WriteReg(PSP, 0x1FFF9000)
T2C4C 000:477.720 - 0.006ms returns 0x00
T2C4C 000:477.725 JLINK_WriteReg(CFBP, 0x00000000)
T2C4C 000:477.729 - 0.006ms returns 0x00
T2C4C 000:477.735   JLINK_SetBPEx(Addr = 0x1FFF8000, Type = 0xFFFFFFF2)
T2C4C 000:477.742 - 0.009ms returns 0x00000008
T2C4C 000:477.747 JLINK_Go()
T2C4C 000:477.755   CPU_WriteMem(4 bytes @ 0xE0002000)
T2C4C 000:478.075   CPU_ReadMem(4 bytes @ 0xE0001000)
T2C4C 000:480.263 - 2.523ms
T2C4C 000:480.275 JLINK_IsHalted()
T2C4C 000:482.099 - 1.828ms returns TRUE
T2C4C 000:482.108 JLINK_ReadReg(R15 (PC))
T2C4C 000:482.113 - 0.007ms returns 0x1FFF8000
T2C4C 000:482.118 JLINK_ClrBPEx(BPHandle = 0x00000008)
T2C4C 000:482.123 - 0.007ms returns 0x00
T2C4C 000:482.128 JLINK_ReadReg(R0)
T2C4C 000:482.132 - 0.006ms returns 0x00000001
T2C4C 000:482.139 JLINK_WriteReg(R0, 0x00014000)
T2C4C 000:482.143 - 0.006ms returns 0x00
T2C4C 000:482.148 JLINK_WriteReg(R1, 0x00002000)
T2C4C 000:482.153 - 0.006ms returns 0x00
T2C4C 000:482.157 JLINK_WriteReg(R2, 0x000000FF)
T2C4C 000:482.162 - 0.041ms returns 0x00
T2C4C 000:482.205 JLINK_WriteReg(R3, 0x00000000)
T2C4C 000:482.210 - 0.007ms returns 0x00
T2C4C 000:482.215 JLINK_WriteReg(R4, 0x00000000)
T2C4C 000:482.219 - 0.006ms returns 0x00
T2C4C 000:482.224 JLINK_WriteReg(R5, 0x00000000)
T2C4C 000:482.228 - 0.006ms returns 0x00
T2C4C 000:482.233 JLINK_WriteReg(R6, 0x00000000)
T2C4C 000:482.237 - 0.006ms returns 0x00
T2C4C 000:482.242 JLINK_WriteReg(R7, 0x00000000)
T2C4C 000:482.246 - 0.006ms returns 0x00
T2C4C 000:482.251 JLINK_WriteReg(R8, 0x00000000)
T2C4C 000:482.255 - 0.006ms returns 0x00
T2C4C 000:482.260 JLINK_WriteReg(R9, 0x1FFF8568)
T2C4C 000:482.264 - 0.006ms returns 0x00
T2C4C 000:482.269 JLINK_WriteReg(R10, 0x00000000)
T2C4C 000:482.274 - 0.006ms returns 0x00
T2C4C 000:482.278 JLINK_WriteReg(R11, 0x00000000)
T2C4C 000:482.283 - 0.006ms returns 0x00
T2C4C 000:482.288 JLINK_WriteReg(R12, 0x00000000)
T2C4C 000:482.292 - 0.006ms returns 0x00
T2C4C 000:482.297 JLINK_WriteReg(R13 (SP), 0x1FFF9000)
T2C4C 000:482.301 - 0.006ms returns 0x00
T2C4C 000:482.306 JLINK_WriteReg(R14, 0x1FFF8001)
T2C4C 000:482.310 - 0.006ms returns 0x00
T2C4C 000:482.315 JLINK_WriteReg(R15 (PC), 0x1FFF8194)
T2C4C 000:482.320 - 0.006ms returns 0x00
T2C4C 000:482.324 JLINK_WriteReg(XPSR, 0x01000000)
T2C4C 000:482.329 - 0.006ms returns 0x00
T2C4C 000:482.334 JLINK_WriteReg(MSP, 0x1FFF9000)
T2C4C 000:482.338 - 0.006ms returns 0x00
T2C4C 000:482.343 JLINK_WriteReg(PSP, 0x1FFF9000)
T2C4C 000:482.347 - 0.006ms returns 0x00
T2C4C 000:482.352 JLINK_WriteReg(CFBP, 0x00000000)
T2C4C 000:482.356 - 0.006ms returns 0x00
T2C4C 000:482.361   JLINK_SetBPEx(Addr = 0x1FFF8000, Type = 0xFFFFFFF2)
T2C4C 000:482.368 - 0.009ms returns 0x00000009
T2C4C 000:482.373 JLINK_Go()
T2C4C 000:482.380   CPU_WriteMem(4 bytes @ 0xE0002000)
T2C4C 000:482.682   CPU_ReadMem(4 bytes @ 0xE0001000)
T2C4C 000:485.019 - 2.653ms
T2C4C 000:485.031 JLINK_IsHalted()
T2C4C 000:485.325 - 0.301ms returns FALSE
T2C4C 000:486.890 JLINK_IsHalted()
T2C4C 000:487.224 - 0.340ms returns FALSE
T2C4C 000:488.778 JLINK_IsHalted()
T2C4C 000:489.047 - 0.274ms returns FALSE
T2C4C 000:492.889 JLINK_IsHalted()
T2C4C 000:493.341 - 0.459ms returns FALSE
T2C4C 000:494.918 JLINK_IsHalted()
T2C4C 000:495.366 - 0.454ms returns FALSE
T2C4C 000:496.874 JLINK_IsHalted()
T2C4C 000:497.387 - 0.519ms returns FALSE
T2C4C 000:498.882 JLINK_IsHalted()
T2C4C 000:499.255 - 0.379ms returns FALSE
T2C4C 000:500.777 JLINK_IsHalted()
T2C4C 000:501.068 - 0.297ms returns FALSE
T2C4C 000:502.874 JLINK_IsHalted()
T2C4C 000:504.913 - 2.047ms returns TRUE
T2C4C 000:504.926 JLINK_ReadReg(R15 (PC))
T2C4C 000:504.933 - 0.008ms returns 0x1FFF8000
T2C4C 000:504.938 JLINK_ClrBPEx(BPHandle = 0x00000009)
T2C4C 000:504.943 - 0.007ms returns 0x00
T2C4C 000:504.948 JLINK_ReadReg(R0)
T2C4C 000:504.953 - 0.006ms returns 0x00000000
T2C4C 000:505.279 JLINK_WriteReg(R0, 0x00016000)
T2C4C 000:505.288 - 0.011ms returns 0x00
T2C4C 000:505.293 JLINK_WriteReg(R1, 0x00002000)
T2C4C 000:505.298 - 0.006ms returns 0x00
T2C4C 000:505.303 JLINK_WriteReg(R2, 0x000000FF)
T2C4C 000:505.307 - 0.006ms returns 0x00
T2C4C 000:505.312 JLINK_WriteReg(R3, 0x00000000)
T2C4C 000:505.316 - 0.006ms returns 0x00
T2C4C 000:505.321 JLINK_WriteReg(R4, 0x00000000)
T2C4C 000:505.325 - 0.006ms returns 0x00
T2C4C 000:505.330 JLINK_WriteReg(R5, 0x00000000)
T2C4C 000:505.334 - 0.006ms returns 0x00
T2C4C 000:505.339 JLINK_WriteReg(R6, 0x00000000)
T2C4C 000:505.343 - 0.006ms returns 0x00
T2C4C 000:505.348 JLINK_WriteReg(R7, 0x00000000)
T2C4C 000:505.352 - 0.006ms returns 0x00
T2C4C 000:505.357 JLINK_WriteReg(R8, 0x00000000)
T2C4C 000:505.362 - 0.006ms returns 0x00
T2C4C 000:505.366 JLINK_WriteReg(R9, 0x1FFF8568)
T2C4C 000:505.371 - 0.006ms returns 0x00
T2C4C 000:505.375 JLINK_WriteReg(R10, 0x00000000)
T2C4C 000:505.380 - 0.006ms returns 0x00
T2C4C 000:505.384 JLINK_WriteReg(R11, 0x00000000)
T2C4C 000:505.389 - 0.006ms returns 0x00
T2C4C 000:505.394 JLINK_WriteReg(R12, 0x00000000)
T2C4C 000:505.398 - 0.006ms returns 0x00
T2C4C 000:505.403 JLINK_WriteReg(R13 (SP), 0x1FFF9000)
T2C4C 000:505.414 - 0.013ms returns 0x00
T2C4C 000:505.419 JLINK_WriteReg(R14, 0x1FFF8001)
T2C4C 000:505.424 - 0.006ms returns 0x00
T2C4C 000:505.429 JLINK_WriteReg(R15 (PC), 0x1FFF8020)
T2C4C 000:505.433 - 0.006ms returns 0x00
T2C4C 000:505.438 JLINK_WriteReg(XPSR, 0x01000000)
T2C4C 000:505.442 - 0.006ms returns 0x00
T2C4C 000:505.447 JLINK_WriteReg(MSP, 0x1FFF9000)
T2C4C 000:505.451 - 0.006ms returns 0x00
T2C4C 000:505.456 JLINK_WriteReg(PSP, 0x1FFF9000)
T2C4C 000:505.460 - 0.006ms returns 0x00
T2C4C 000:505.465 JLINK_WriteReg(CFBP, 0x00000000)
T2C4C 000:505.470 - 0.006ms returns 0x00
T2C4C 000:505.475   JLINK_SetBPEx(Addr = 0x1FFF8000, Type = 0xFFFFFFF2)
T2C4C 000:505.482 - 0.009ms returns 0x0000000A
T2C4C 000:505.487 JLINK_Go()
T2C4C 000:505.496   CPU_WriteMem(4 bytes @ 0xE0002000)
T2C4C 000:505.804   CPU_ReadMem(4 bytes @ 0xE0001000)
T2C4C 000:508.058 - 2.577ms
T2C4C 000:508.070 JLINK_IsHalted()
T2C4C 000:509.959 - 1.895ms returns TRUE
T2C4C 000:509.970 JLINK_ReadReg(R15 (PC))
T2C4C 000:509.976 - 0.008ms returns 0x1FFF8000
T2C4C 000:509.981 JLINK_ClrBPEx(BPHandle = 0x0000000A)
T2C4C 000:509.986 - 0.007ms returns 0x00
T2C4C 000:509.991 JLINK_ReadReg(R0)
T2C4C 000:509.996 - 0.006ms returns 0x00000001
T2C4C 000:510.002 JLINK_WriteReg(R0, 0x00016000)
T2C4C 000:510.007 - 0.007ms returns 0x00
T2C4C 000:510.012 JLINK_WriteReg(R1, 0x00002000)
T2C4C 000:510.016 - 0.006ms returns 0x00
T2C4C 000:510.021 JLINK_WriteReg(R2, 0x000000FF)
T2C4C 000:510.025 - 0.006ms returns 0x00
T2C4C 000:510.030 JLINK_WriteReg(R3, 0x00000000)
T2C4C 000:510.035 - 0.006ms returns 0x00
T2C4C 000:510.039 JLINK_WriteReg(R4, 0x00000000)
T2C4C 000:510.044 - 0.006ms returns 0x00
T2C4C 000:510.048 JLINK_WriteReg(R5, 0x00000000)
T2C4C 000:510.053 - 0.006ms returns 0x00
T2C4C 000:510.058 JLINK_WriteReg(R6, 0x00000000)
T2C4C 000:510.062 - 0.006ms returns 0x00
T2C4C 000:510.067 JLINK_WriteReg(R7, 0x00000000)
T2C4C 000:510.071 - 0.006ms returns 0x00
T2C4C 000:510.076 JLINK_WriteReg(R8, 0x00000000)
T2C4C 000:510.080 - 0.006ms returns 0x00
T2C4C 000:510.085 JLINK_WriteReg(R9, 0x1FFF8568)
T2C4C 000:510.089 - 0.006ms returns 0x00
T2C4C 000:510.094 JLINK_WriteReg(R10, 0x00000000)
T2C4C 000:510.099 - 0.006ms returns 0x00
T2C4C 000:510.104 JLINK_WriteReg(R11, 0x00000000)
T2C4C 000:510.108 - 0.006ms returns 0x00
T2C4C 000:510.113 JLINK_WriteReg(R12, 0x00000000)
T2C4C 000:510.117 - 0.006ms returns 0x00
T2C4C 000:510.122 JLINK_WriteReg(R13 (SP), 0x1FFF9000)
T2C4C 000:510.127 - 0.006ms returns 0x00
T2C4C 000:510.132 JLINK_WriteReg(R14, 0x1FFF8001)
T2C4C 000:510.136 - 0.006ms returns 0x00
T2C4C 000:510.141 JLINK_WriteReg(R15 (PC), 0x1FFF8194)
T2C4C 000:510.145 - 0.006ms returns 0x00
T2C4C 000:510.150 JLINK_WriteReg(XPSR, 0x01000000)
T2C4C 000:510.154 - 0.006ms returns 0x00
T2C4C 000:510.159 JLINK_WriteReg(MSP, 0x1FFF9000)
T2C4C 000:510.164 - 0.006ms returns 0x00
T2C4C 000:510.168 JLINK_WriteReg(PSP, 0x1FFF9000)
T2C4C 000:510.173 - 0.006ms returns 0x00
T2C4C 000:510.178 JLINK_WriteReg(CFBP, 0x00000000)
T2C4C 000:510.182 - 0.006ms returns 0x00
T2C4C 000:510.187   JLINK_SetBPEx(Addr = 0x1FFF8000, Type = 0xFFFFFFF2)
T2C4C 000:510.194 - 0.009ms returns 0x0000000B
T2C4C 000:510.199 JLINK_Go()
T2C4C 000:510.206   CPU_WriteMem(4 bytes @ 0xE0002000)
T2C4C 000:510.555   CPU_ReadMem(4 bytes @ 0xE0001000)
T2C4C 000:512.815 - 2.622ms
T2C4C 000:512.828 JLINK_IsHalted()
T2C4C 000:513.144 - 0.321ms returns FALSE
T2C4C 000:514.824 JLINK_IsHalted()
T2C4C 000:515.153 - 0.334ms returns FALSE
T2C4C 000:516.809 JLINK_IsHalted()
T2C4C 000:517.174 - 0.370ms returns FALSE
T2C4C 000:518.818 JLINK_IsHalted()
T2C4C 000:519.184 - 0.372ms returns FALSE
T2C4C 000:520.825 JLINK_IsHalted()
T2C4C 000:521.185 - 0.366ms returns FALSE
T2C4C 000:522.818 JLINK_IsHalted()
T2C4C 000:523.179 - 0.367ms returns FALSE
T2C4C 000:524.814 JLINK_IsHalted()
T2C4C 000:525.203 - 0.395ms returns FALSE
T2C4C 000:526.705 JLINK_IsHalted()
T2C4C 000:527.050 - 0.351ms returns FALSE
T2C4C 000:528.785 JLINK_IsHalted()
T2C4C 000:529.207 - 0.427ms returns FALSE
T2C4C 000:530.778 JLINK_IsHalted()
T2C4C 000:532.904 - 2.132ms returns TRUE
T2C4C 000:532.915 JLINK_ReadReg(R15 (PC))
T2C4C 000:532.921 - 0.008ms returns 0x1FFF8000
T2C4C 000:532.926 JLINK_ClrBPEx(BPHandle = 0x0000000B)
T2C4C 000:532.931 - 0.006ms returns 0x00
T2C4C 000:532.936 JLINK_ReadReg(R0)
T2C4C 000:532.941 - 0.006ms returns 0x00000000
T2C4C 000:533.232 JLINK_WriteReg(R0, 0x00018000)
T2C4C 000:533.241 - 0.011ms returns 0x00
T2C4C 000:533.246 JLINK_WriteReg(R1, 0x00002000)
T2C4C 000:533.250 - 0.006ms returns 0x00
T2C4C 000:533.255 JLINK_WriteReg(R2, 0x000000FF)
T2C4C 000:533.260 - 0.006ms returns 0x00
T2C4C 000:533.264 JLINK_WriteReg(R3, 0x00000000)
T2C4C 000:533.269 - 0.006ms returns 0x00
T2C4C 000:533.273 JLINK_WriteReg(R4, 0x00000000)
T2C4C 000:533.278 - 0.006ms returns 0x00
T2C4C 000:533.282 JLINK_WriteReg(R5, 0x00000000)
T2C4C 000:533.287 - 0.006ms returns 0x00
T2C4C 000:533.292 JLINK_WriteReg(R6, 0x00000000)
T2C4C 000:533.296 - 0.006ms returns 0x00
T2C4C 000:533.301 JLINK_WriteReg(R7, 0x00000000)
T2C4C 000:533.305 - 0.006ms returns 0x00
T2C4C 000:533.310 JLINK_WriteReg(R8, 0x00000000)
T2C4C 000:533.314 - 0.006ms returns 0x00
T2C4C 000:533.319 JLINK_WriteReg(R9, 0x1FFF8568)
T2C4C 000:533.323 - 0.006ms returns 0x00
T2C4C 000:533.328 JLINK_WriteReg(R10, 0x00000000)
T2C4C 000:533.332 - 0.006ms returns 0x00
T2C4C 000:533.337 JLINK_WriteReg(R11, 0x00000000)
T2C4C 000:533.341 - 0.006ms returns 0x00
T2C4C 000:533.346 JLINK_WriteReg(R12, 0x00000000)
T2C4C 000:533.350 - 0.006ms returns 0x00
T2C4C 000:533.355 JLINK_WriteReg(R13 (SP), 0x1FFF9000)
T2C4C 000:533.360 - 0.006ms returns 0x00
T2C4C 000:533.365 JLINK_WriteReg(R14, 0x1FFF8001)
T2C4C 000:533.369 - 0.006ms returns 0x00
T2C4C 000:533.374 JLINK_WriteReg(R15 (PC), 0x1FFF8020)
T2C4C 000:533.378 - 0.006ms returns 0x00
T2C4C 000:533.383 JLINK_WriteReg(XPSR, 0x01000000)
T2C4C 000:533.387 - 0.006ms returns 0x00
T2C4C 000:533.392 JLINK_WriteReg(MSP, 0x1FFF9000)
T2C4C 000:533.396 - 0.006ms returns 0x00
T2C4C 000:533.401 JLINK_WriteReg(PSP, 0x1FFF9000)
T2C4C 000:533.406 - 0.006ms returns 0x00
T2C4C 000:533.410 JLINK_WriteReg(CFBP, 0x00000000)
T2C4C 000:533.415 - 0.006ms returns 0x00
T2C4C 000:533.420   JLINK_SetBPEx(Addr = 0x1FFF8000, Type = 0xFFFFFFF2)
T2C4C 000:533.427 - 0.009ms returns 0x0000000C
T2C4C 000:533.432 JLINK_Go()
T2C4C 000:533.438   CPU_WriteMem(4 bytes @ 0xE0002000)
T2C4C 000:533.841   CPU_ReadMem(4 bytes @ 0xE0001000)
T2C4C 000:536.231 - 2.807ms
T2C4C 000:536.245 JLINK_IsHalted()
T2C4C 000:538.420 - 2.182ms returns TRUE
T2C4C 000:538.432 JLINK_ReadReg(R15 (PC))
T2C4C 000:538.438 - 0.008ms returns 0x1FFF8000
T2C4C 000:538.444 JLINK_ClrBPEx(BPHandle = 0x0000000C)
T2C4C 000:538.449 - 0.007ms returns 0x00
T2C4C 000:538.454 JLINK_ReadReg(R0)
T2C4C 000:538.458 - 0.006ms returns 0x00000001
T2C4C 000:538.465 JLINK_WriteReg(R0, 0x00018000)
T2C4C 000:538.470 - 0.007ms returns 0x00
T2C4C 000:538.475 JLINK_WriteReg(R1, 0x00002000)
T2C4C 000:538.479 - 0.006ms returns 0x00
T2C4C 000:538.484 JLINK_WriteReg(R2, 0x000000FF)
T2C4C 000:538.489 - 0.006ms returns 0x00
T2C4C 000:538.493 JLINK_WriteReg(R3, 0x00000000)
T2C4C 000:538.498 - 0.006ms returns 0x00
T2C4C 000:538.503 JLINK_WriteReg(R4, 0x00000000)
T2C4C 000:538.507 - 0.006ms returns 0x00
T2C4C 000:538.512 JLINK_WriteReg(R5, 0x00000000)
T2C4C 000:538.516 - 0.006ms returns 0x00
T2C4C 000:538.521 JLINK_WriteReg(R6, 0x00000000)
T2C4C 000:538.525 - 0.006ms returns 0x00
T2C4C 000:538.530 JLINK_WriteReg(R7, 0x00000000)
T2C4C 000:538.534 - 0.006ms returns 0x00
T2C4C 000:538.539 JLINK_WriteReg(R8, 0x00000000)
T2C4C 000:538.544 - 0.006ms returns 0x00
T2C4C 000:538.548 JLINK_WriteReg(R9, 0x1FFF8568)
T2C4C 000:538.553 - 0.006ms returns 0x00
T2C4C 000:538.557 JLINK_WriteReg(R10, 0x00000000)
T2C4C 000:538.562 - 0.006ms returns 0x00
T2C4C 000:538.567 JLINK_WriteReg(R11, 0x00000000)
T2C4C 000:538.571 - 0.006ms returns 0x00
T2C4C 000:538.576 JLINK_WriteReg(R12, 0x00000000)
T2C4C 000:538.580 - 0.008ms returns 0x00
T2C4C 000:538.589 JLINK_WriteReg(R13 (SP), 0x1FFF9000)
T2C4C 000:538.594 - 0.007ms returns 0x00
T2C4C 000:538.599 JLINK_WriteReg(R14, 0x1FFF8001)
T2C4C 000:538.603 - 0.006ms returns 0x00
T2C4C 000:538.608 JLINK_WriteReg(R15 (PC), 0x1FFF8194)
T2C4C 000:538.613 - 0.006ms returns 0x00
T2C4C 000:538.617 JLINK_WriteReg(XPSR, 0x01000000)
T2C4C 000:538.622 - 0.006ms returns 0x00
T2C4C 000:538.627 JLINK_WriteReg(MSP, 0x1FFF9000)
T2C4C 000:538.631 - 0.006ms returns 0x00
T2C4C 000:538.637 JLINK_WriteReg(PSP, 0x1FFF9000)
T2C4C 000:538.642 - 0.006ms returns 0x00
T2C4C 000:538.646 JLINK_WriteReg(CFBP, 0x00000000)
T2C4C 000:538.651 - 0.006ms returns 0x00
T2C4C 000:538.656   JLINK_SetBPEx(Addr = 0x1FFF8000, Type = 0xFFFFFFF2)
T2C4C 000:538.663 - 0.009ms returns 0x0000000D
T2C4C 000:538.693 JLINK_Go()
T2C4C 000:538.700   CPU_WriteMem(4 bytes @ 0xE0002000)
T2C4C 000:539.034   CPU_ReadMem(4 bytes @ 0xE0001000)
T2C4C 000:541.299 - 2.612ms
T2C4C 000:541.310 JLINK_IsHalted()
T2C4C 000:541.524 - 0.218ms returns FALSE
T2C4C 000:544.646 JLINK_IsHalted()
T2C4C 000:545.129 - 0.490ms returns FALSE
T2C4C 000:546.732 JLINK_IsHalted()
T2C4C 000:547.111 - 0.385ms returns FALSE
T2C4C 000:548.728 JLINK_IsHalted()
T2C4C 000:549.133 - 0.411ms returns FALSE
T2C4C 000:550.662 JLINK_IsHalted()
T2C4C 000:551.049 - 0.393ms returns FALSE
T2C4C 000:555.716 JLINK_IsHalted()
T2C4C 000:556.055 - 0.346ms returns FALSE
T2C4C 000:557.719 JLINK_IsHalted()
T2C4C 000:558.087 - 0.374ms returns FALSE
T2C4C 000:559.706 JLINK_IsHalted()
T2C4C 000:561.928 - 2.228ms returns TRUE
T2C4C 000:561.939 JLINK_ReadReg(R15 (PC))
T2C4C 000:561.946 - 0.008ms returns 0x1FFF8000
T2C4C 000:561.951 JLINK_ClrBPEx(BPHandle = 0x0000000D)
T2C4C 000:561.956 - 0.007ms returns 0x00
T2C4C 000:561.961 JLINK_ReadReg(R0)
T2C4C 000:561.966 - 0.006ms returns 0x00000000
T2C4C 000:562.278 JLINK_WriteReg(R0, 0x0001A000)
T2C4C 000:562.287 - 0.011ms returns 0x00
T2C4C 000:562.292 JLINK_WriteReg(R1, 0x00002000)
T2C4C 000:562.297 - 0.006ms returns 0x00
T2C4C 000:562.301 JLINK_WriteReg(R2, 0x000000FF)
T2C4C 000:562.306 - 0.006ms returns 0x00
T2C4C 000:562.310 JLINK_WriteReg(R3, 0x00000000)
T2C4C 000:562.315 - 0.006ms returns 0x00
T2C4C 000:562.320 JLINK_WriteReg(R4, 0x00000000)
T2C4C 000:562.324 - 0.006ms returns 0x00
T2C4C 000:562.329 JLINK_WriteReg(R5, 0x00000000)
T2C4C 000:562.333 - 0.006ms returns 0x00
T2C4C 000:562.338 JLINK_WriteReg(R6, 0x00000000)
T2C4C 000:562.342 - 0.006ms returns 0x00
T2C4C 000:562.347 JLINK_WriteReg(R7, 0x00000000)
T2C4C 000:562.351 - 0.006ms returns 0x00
T2C4C 000:562.356 JLINK_WriteReg(R8, 0x00000000)
T2C4C 000:562.361 - 0.006ms returns 0x00
T2C4C 000:562.365 JLINK_WriteReg(R9, 0x1FFF8568)
T2C4C 000:562.370 - 0.006ms returns 0x00
T2C4C 000:562.374 JLINK_WriteReg(R10, 0x00000000)
T2C4C 000:562.379 - 0.006ms returns 0x00
T2C4C 000:562.384 JLINK_WriteReg(R11, 0x00000000)
T2C4C 000:562.388 - 0.006ms returns 0x00
T2C4C 000:562.393 JLINK_WriteReg(R12, 0x00000000)
T2C4C 000:562.397 - 0.006ms returns 0x00
T2C4C 000:562.402 JLINK_WriteReg(R13 (SP), 0x1FFF9000)
T2C4C 000:562.407 - 0.006ms returns 0x00
T2C4C 000:562.412 JLINK_WriteReg(R14, 0x1FFF8001)
T2C4C 000:562.416 - 0.006ms returns 0x00
T2C4C 000:562.421 JLINK_WriteReg(R15 (PC), 0x1FFF8020)
T2C4C 000:562.425 - 0.006ms returns 0x00
T2C4C 000:562.430 JLINK_WriteReg(XPSR, 0x01000000)
T2C4C 000:562.435 - 0.006ms returns 0x00
T2C4C 000:562.439 JLINK_WriteReg(MSP, 0x1FFF9000)
T2C4C 000:562.444 - 0.006ms returns 0x00
T2C4C 000:562.449 JLINK_WriteReg(PSP, 0x1FFF9000)
T2C4C 000:562.453 - 0.006ms returns 0x00
T2C4C 000:562.458 JLINK_WriteReg(CFBP, 0x00000000)
T2C4C 000:562.462 - 0.006ms returns 0x00
T2C4C 000:562.467   JLINK_SetBPEx(Addr = 0x1FFF8000, Type = 0xFFFFFFF2)
T2C4C 000:562.475 - 0.009ms returns 0x0000000E
T2C4C 000:562.480 JLINK_Go()
T2C4C 000:562.487   CPU_WriteMem(4 bytes @ 0xE0002000)
T2C4C 000:562.887   CPU_ReadMem(4 bytes @ 0xE0001000)
T2C4C 000:565.390 - 2.917ms
T2C4C 000:565.404 JLINK_IsHalted()
T2C4C 000:567.536 - 2.143ms returns TRUE
T2C4C 000:567.555 JLINK_ReadReg(R15 (PC))
T2C4C 000:567.562 - 0.009ms returns 0x1FFF8000
T2C4C 000:567.568 JLINK_ClrBPEx(BPHandle = 0x0000000E)
T2C4C 000:567.573 - 0.007ms returns 0x00
T2C4C 000:567.578 JLINK_ReadReg(R0)
T2C4C 000:567.582 - 0.006ms returns 0x00000001
T2C4C 000:567.614 JLINK_WriteReg(R0, 0x0001A000)
T2C4C 000:567.619 - 0.007ms returns 0x00
T2C4C 000:567.624 JLINK_WriteReg(R1, 0x00002000)
T2C4C 000:567.628 - 0.006ms returns 0x00
T2C4C 000:567.633 JLINK_WriteReg(R2, 0x000000FF)
T2C4C 000:567.637 - 0.006ms returns 0x00
T2C4C 000:567.642 JLINK_WriteReg(R3, 0x00000000)
T2C4C 000:567.646 - 0.006ms returns 0x00
T2C4C 000:567.651 JLINK_WriteReg(R4, 0x00000000)
T2C4C 000:567.655 - 0.006ms returns 0x00
T2C4C 000:567.660 JLINK_WriteReg(R5, 0x00000000)
T2C4C 000:567.665 - 0.006ms returns 0x00
T2C4C 000:567.669 JLINK_WriteReg(R6, 0x00000000)
T2C4C 000:567.674 - 0.006ms returns 0x00
T2C4C 000:567.678 JLINK_WriteReg(R7, 0x00000000)
T2C4C 000:567.683 - 0.006ms returns 0x00
T2C4C 000:567.687 JLINK_WriteReg(R8, 0x00000000)
T2C4C 000:567.692 - 0.006ms returns 0x00
T2C4C 000:567.697 JLINK_WriteReg(R9, 0x1FFF8568)
T2C4C 000:567.701 - 0.006ms returns 0x00
T2C4C 000:567.706 JLINK_WriteReg(R10, 0x00000000)
T2C4C 000:567.710 - 0.006ms returns 0x00
T2C4C 000:567.715 JLINK_WriteReg(R11, 0x00000000)
T2C4C 000:567.719 - 0.006ms returns 0x00
T2C4C 000:567.724 JLINK_WriteReg(R12, 0x00000000)
T2C4C 000:567.729 - 0.006ms returns 0x00
T2C4C 000:567.733 JLINK_WriteReg(R13 (SP), 0x1FFF9000)
T2C4C 000:567.738 - 0.006ms returns 0x00
T2C4C 000:567.743 JLINK_WriteReg(R14, 0x1FFF8001)
T2C4C 000:567.747 - 0.006ms returns 0x00
T2C4C 000:567.752 JLINK_WriteReg(R15 (PC), 0x1FFF8194)
T2C4C 000:567.756 - 0.006ms returns 0x00
T2C4C 000:567.761 JLINK_WriteReg(XPSR, 0x01000000)
T2C4C 000:567.766 - 0.006ms returns 0x00
T2C4C 000:567.770 JLINK_WriteReg(MSP, 0x1FFF9000)
